RF24.1
nerves_io_RF2
RF24.3
RF24.4
RF24.A
RF24.2
RF24.8
RF24.N
Linux
init
RF24::begin setup 35
================ SPI Configuration ================
CSN Pin  	 = CE0 (PI Hardware Driven)

CE Pin  	 = Custom GPIO22

Clock Speed	 = 8 Mhz

================ NRF Configuration ================

STATUS		 = 0x0e RX_DR=0 TX_DS=0 MAX_RT=0 RX_P_NO=7 TX_FULL=0
RX_ADDR_P0-1	 = 0xf0f0f0f0e1 0xf0f0f0f0d2
RX_ADDR_P2-5	 = 0xc3 0xc4 0xc5 0xc6
TX_ADDR		 = 0xf0f0f0f0e1
RX_PW_P0-6	 = 0x20 0x20 0x00 0x00 0x00 0x00
EN_AA		 = 0x3f
EN_RXADDR	 = 0x02
RF_CH		 = 0x4c
RF_SETUP	 = 0x0b
CONFIG		 = 0x0e
DYNPD/FEATURE	 = 0x3f 0x04
Data Rate	 = 2MBPS
Model		 = nRF24L01+
CRC Length	 = 16 bits
PA Power	 = PA_LOW
RF24.-2
RF24.-2
RF24.-2
EEH
same CRC
PA_level = 1
same PA
================ SPI Configuration ================
CSN Pin  	 = CE0 (PI Hardware Driven)

CE Pin  	 = Custom GPIO22

Clock Speed	 = 8 Mhz

================ NRF Configuration ================

STATUS		 = 0x0e RX_DR=0 TX_DS=0 MAX_RT=0 RX_P_NO=7 TX_FULL=0
RX_ADDR_P0-1	 = 0xf0f0f0f0e1 0xf0f0f0f0d2
RX_ADDR_P2-5	 = 0xc3 0xc4 0xc5 0xc6
TX_ADDR		 = 0xf0f0f0f0e1
RX_PW_P0-6	 = 0x20 0x20 0x00 0x00 0x00 0x00
EN_AA		 = 0x3f
EN_RXADDR	 = 0x02
RF_CH		 = 0x4c
RF_SETUP	 = 0x03
CONFIG		 = 0x0f
DYNPD/FEATURE	 = 0x3f 0x04
Data Rate	 = 1MBPS
Model		 = nRF24L01+
CRC Length	 = 16 bits
PA Power	 = PA_LOW
Config worked
RF24.9
RF24.G
RF24.A
RF24.2
RF24.8
RF24.B
RF24.9
